
T2054 000:376 SEGGER J-Link V4.96d Log File (0001ms, 0273ms total)
T2054 000:376 DLL Compiled: Jan 29 2015 11:45:37 (0001ms, 0273ms total)
T2054 000:376 Logging started @ 2019-09-20 14:36 (0001ms, 0273ms total)
T2054 000:377 JLINK_SetWarnOutHandler(...) (0000ms, 0273ms total)
T2054 000:377 JLINK_OpenEx(...)
Firmware: J-Link V9 compiled Aug  3 2016 18:50:44
Hardware: V9.40
S/N: 59406895
Feature(s): RDI, GDB, FlashDL, FlashBP, JFlash  returns O.K. (0270ms, 0543ms total)
T2054 000:647 JLINK_SetErrorOutHandler(...) (0001ms, 0544ms total)
T2054 000:648 JLINK_ExecCommand("ProjectFile = "E:\software\saga\saga\Project\JLinkSettings.ini"", ...)  returns 0x00 (0002ms, 0546ms total)
T2054 000:662 JLINK_ExecCommand("Device = STM32F103VC", ...)Device "STM32F103VC" selected.  returns 0x00 (0031ms, 0577ms total)
T2054 000:693 JLINK_ExecCommand("DisableConnectionTimeout", ...)  returns 0x01 (0000ms, 0577ms total)
T2054 000:693 JLINK_GetHardwareVersion()  returns 0x16F30 (0000ms, 0577ms total)
T2054 000:693 JLINK_GetDLLVersion()  returns 49604 (0000ms, 0577ms total)
T2054 000:694 JLINK_GetFirmwareString(...) (0000ms, 0577ms total)
T2054 000:726 JLINK_GetDLLVersion()  returns 49604 (0000ms, 0577ms total)
T2054 000:726 JLINK_GetCompileDateTime() (0000ms, 0577ms total)
T2054 000:732 JLINK_GetFirmwareString(...) (0000ms, 0577ms total)
T2054 000:738 JLINK_GetHardwareVersion()  returns 0x16F30 (0000ms, 0577ms total)
T2054 000:753 JLINK_TIF_Select(JLINKARM_TIF_SWD)  returns 0x00 (0000ms, 0577ms total)
T2054 000:753 JLINK_SetSpeed(5000) (0001ms, 0578ms total)
T2054 000:754 JLINK_GetId() >0x108 TIF>Found SWD-DP with ID 0x1BA01477 >0x0D TIF> >0x28 TIF> >0x0D TIF> >0x28 TIF> >0x0D TIF> >0x21 TIF> >0x0D TIF> >0x28 TIF> >0x0D TIF> >0x28 TIF> >0x0D TIF> >0x28 TIF> >0x0D TIF> >0x21 TIF> >0x0D TIF> >0x21 TIF> >0x0D TIF> >0x28 TIF> >0x0D TIF> >0x21 TIF> >0x0D TIF> >0x21 TIF> >0x108 TIF>Found SWD-DP with ID 0x1BA01477 >0x0D TIF> >0x21 TIF> >0x0D TIF> >0x28 TIF> >0x0D TIF> >0x28 TIF> >0x0D TIF> >0x21 TIF> >0x0D TIF> >0x28 TIF> >0x0D TIF> >0x21 TIF> >0x0D TIF> >0x21 TIF>
 >0x0D TIF> >0x21 TIF> >0x0D TIF> >0x21 TIF> >0x0D TIF> >0x28 TIF> >0x0D TIF> >0x28 TIF> >0x0D TIF> >0x21 TIF> >0x0D TIF> >0x28 TIF> >0x0D TIF> >0x28 TIF> >0x0D TIF> >0x28 TIF> >0x0D TIF> >0x21 TIF> >0x0D TIF> >0x21 TIF> >0x0D TIF> >0x28 TIF> >0x0D TIF> >0x21 TIF> >0x0D TIF> >0x21 TIF>Found Cortex-M3 r1p1, Little endian. -- CPU_WriteMem(4 bytes @ 0xE0002000) -- CPU_ReadMem(4 bytes @ 0xE000EDF0) -- CPU_ReadMem(4 bytes @ 0xE0002000)FPUnit: 6 code (BP) slots and 2 literal slots
 -- CPU_ReadMem(4 bytes @ 0xE000EDFC) -- CPU_ReadMem(4 bytes @ 0xE0001000) -- CPU_WriteMem(4 bytes @ 0xE0001000) -- CPU_ReadMem(4 bytes @ 0xE000ED88) -- CPU_WriteMem(4 bytes @ 0xE000ED88) -- CPU_ReadMem(4 bytes @ 0xE000ED88) -- CPU_WriteMem(4 bytes @ 0xE000ED88) -- CPU_ReadMem(4 bytes @ 0xE00FF010)TPIU fitted. -- CPU_ReadMem(4 bytes @ 0xE00FF014)ETM fitted. -- CPU_ReadMem(4 bytes @ 0xE00FF018) >0x0D TIF> >0x21 TIF>  returns 0x1BA01477 (0031ms, 0609ms total)
T2054 000:785 JLINK_GetDLLVersion()  returns 49604 (0000ms, 0609ms total)
T2054 000:785 JLINK_CORE_GetFound()  returns 0x30000FF (0000ms, 0609ms total)
T2054 000:785 JLINK_GetDebugInfo(0x100) -- Value=0xE00FF003  returns 0x00 (0000ms, 0609ms total)
T2054 000:787 JLINK_ReadMem (0xE00FF000, 0x0020 Bytes, ...) -- CPU is running -- CPU_ReadMem(32 bytes @ 0xE00FF000) - Data: 03 F0 F0 FF 03 20 F0 FF 03 30 F0 FF 03 10 F0 FF ...  returns 0x00 (0001ms, 0610ms total)
T2054 000:788 JLINK_ReadMem (0xE000EFF0, 0x0010 Bytes, ...) -- CPU is running -- CPU_ReadMem(16 bytes @ 0xE000EFF0) - Data: 0D 00 00 00 E0 00 00 00 05 00 00 00 B1 00 00 00  returns 0x00 (0000ms, 0610ms total)
T2054 000:788 JLINK_ReadMem (0xE000EFD0, 0x0020 Bytes, ...) -- CPU is running -- CPU_ReadMem(32 bytes @ 0xE000EFD0) - Data: 04 00 00 00 00 00 00 00 00 00 00 00 00 00 00 00 ...  returns 0x00 (0000ms, 0610ms total)
T2054 000:788 JLINK_ReadMem (0xE0001FF0, 0x0010 Bytes, ...) -- CPU is running -- CPU_ReadMem(16 bytes @ 0xE0001FF0) - Data: 0D 00 00 00 E0 00 00 00 05 00 00 00 B1 00 00 00  returns 0x00 (0001ms, 0611ms total)
T2054 000:789 JLINK_ReadMem (0xE0001FD0, 0x0020 Bytes, ...) -- CPU is running -- CPU_ReadMem(32 bytes @ 0xE0001FD0) - Data: 04 00 00 00 00 00 00 00 00 00 00 00 00 00 00 00 ...  returns 0x00 (0000ms, 0611ms total)
T2054 000:789 JLINK_ReadMem (0xE0002FF0, 0x0010 Bytes, ...) -- CPU is running -- CPU_ReadMem(16 bytes @ 0xE0002FF0) - Data: 0D 00 00 00 E0 00 00 00 05 00 00 00 B1 00 00 00  returns 0x00 (0000ms, 0611ms total)
T2054 000:789 JLINK_ReadMem (0xE0002FD0, 0x0020 Bytes, ...) -- CPU is running -- CPU_ReadMem(32 bytes @ 0xE0002FD0) - Data: 04 00 00 00 00 00 00 00 00 00 00 00 00 00 00 00 ...  returns 0x00 (0001ms, 0612ms total)
T2054 000:790 JLINK_ReadMem (0xE0000FF0, 0x0010 Bytes, ...) -- CPU is running -- CPU_ReadMem(16 bytes @ 0xE0000FF0) - Data: 0D 00 00 00 E0 00 00 00 05 00 00 00 B1 00 00 00  returns 0x00 (0000ms, 0612ms total)
T2054 000:790 JLINK_ReadMem (0xE0000FD0, 0x0020 Bytes, ...) -- CPU is running -- CPU_ReadMem(32 bytes @ 0xE0000FD0) - Data: 04 00 00 00 00 00 00 00 00 00 00 00 00 00 00 00 ...  returns 0x00 (0000ms, 0612ms total)
T2054 000:790 JLINK_ReadMem (0xE0040FF0, 0x0010 Bytes, ...) -- CPU is running -- CPU_ReadMem(16 bytes @ 0xE0040FF0) - Data: 0D 00 00 00 90 00 00 00 05 00 00 00 B1 00 00 00  returns 0x00 (0001ms, 0613ms total)
T2054 000:791 JLINK_ReadMem (0xE0040FD0, 0x0020 Bytes, ...) -- CPU is running -- CPU_ReadMem(32 bytes @ 0xE0040FD0) - Data: 04 00 00 00 00 00 00 00 00 00 00 00 00 00 00 00 ...  returns 0x00 (0000ms, 0613ms total)
T2054 000:791 JLINK_ReadMem (0xE0041FF0, 0x0010 Bytes, ...) -- CPU is running -- CPU_ReadMem(16 bytes @ 0xE0041FF0) - Data: 0D 00 00 00 90 00 00 00 05 00 00 00 B1 00 00 00  returns 0x00 (0000ms, 0613ms total)
T2054 000:791 JLINK_ReadMem (0xE0041FD0, 0x0020 Bytes, ...) -- CPU is running -- CPU_ReadMem(32 bytes @ 0xE0041FD0) - Data: 04 00 00 00 00 00 00 00 00 00 00 00 00 00 00 00 ...  returns 0x00 (0001ms, 0614ms total)
T2054 000:792 JLINK_ReadMemU32(0xE000ED00, 0x0001 Items, ...) -- CPU is running -- CPU_ReadMem(4 bytes @ 0xE000ED00) - Data: 31 C2 1F 41  returns 0x01 (0000ms, 0614ms total)
T2054 000:792 JLINK_SetResetType(JLINKARM_RESET_TYPE_NORMAL)  returns JLINKARM_RESET_TYPE_NORMAL (0000ms, 0614ms total)
T2054 000:792 JLINK_Reset() -- CPU is running -- CPU_WriteMem(4 bytes @ 0xE000EDF0) -- CPU is running -- CPU_WriteMem(4 bytes @ 0xE000EDFC) >0x35 TIF> -- CPU is running -- CPU_WriteMem(4 bytes @ 0xE000ED0C) -- CPU is running -- CPU_ReadMem(4 bytes @ 0xE000EDF0) -- CPU is running -- CPU_ReadMem(4 bytes @ 0xE000EDF0) -- CPU is running -- CPU_WriteMem(4 bytes @ 0xE000EDF0) -- CPU is running -- CPU_WriteMem(4 bytes @ 0xE000EDFC) -- CPU is running -- CPU_ReadMem(4 bytes @ 0xE000EDF0)
 -- CPU_WriteMem(4 bytes @ 0xE0002000) -- CPU_ReadMem(4 bytes @ 0xE000EDFC) -- CPU_ReadMem(4 bytes @ 0xE0001000) (0013ms, 0627ms total)
T2054 000:805 JLINK_Halt()  returns 0x00 (0000ms, 0627ms total)
T2054 000:805 JLINK_IsHalted()  returns TRUE (0000ms, 0627ms total)
T2054 000:805 JLINK_ReadMemU32(0xE000EDF0, 0x0001 Items, ...) -- CPU_ReadMem(4 bytes @ 0xE000EDF0) - Data: 03 00 03 00  returns 0x01 (0001ms, 0628ms total)
T2054 000:806 JLINK_WriteU32(0xE000EDF0, 0xA05F0003) -- CPU_WriteMem(4 bytes @ 0xE000EDF0)  returns 0x00 (0000ms, 0628ms total)
T2054 000:806 JLINK_WriteU32(0xE000EDFC, 0x01000000) -- CPU_WriteMem(4 bytes @ 0xE000EDFC)  returns 0x00 (0000ms, 0628ms total)
T2054 000:816 JLINK_GetHWStatus(...)  returns 0x00 (0000ms, 0628ms total)
T2054 000:823 JLINK_GetNumBPUnits(Type = 0xFFFFFF00)  returns 0x06 (0000ms, 0628ms total)
T2054 000:823 JLINK_GetNumBPUnits(Type = 0xF0)  returns 0x2000 (0000ms, 0628ms total)
T2054 000:823 JLINK_GetNumWPUnits()  returns 0x04 (0000ms, 0628ms total)
T2054 000:829 JLINK_GetSpeed()  returns 0xFA0 (0000ms, 0628ms total)
T2054 000:833 JLINK_ReadMemU32(0xE000E004, 0x0001 Items, ...) -- CPU_ReadMem(4 bytes @ 0xE000E004) - Data: 01 00 00 00  returns 0x01 (0001ms, 0629ms total)
T2054 000:834 JLINK_ReadMemU32(0xE000E004, 0x0001 Items, ...) -- CPU_ReadMem(4 bytes @ 0xE000E004) - Data: 01 00 00 00  returns 0x01 (0000ms, 0629ms total)
T2054 000:834 JLINK_WriteMem(0xE0001000, 0x001C Bytes, ...) - Data: 01 00 00 00 00 00 00 00 00 00 00 00 00 00 00 00 ... -- CPU_WriteMem(28 bytes @ 0xE0001000)  returns 0x1C (0001ms, 0630ms total)
T2054 000:835 JLINK_ReadMem (0xE0001000, 0x001C Bytes, ...) -- CPU_ReadMem(28 bytes @ 0xE0001000) - Data: 01 00 00 40 00 00 00 00 00 00 00 00 00 00 00 00 ...  returns 0x00 (0000ms, 0630ms total)
T2054 000:835 JLINK_Halt()  returns 0x00 (0000ms, 0630ms total)
T2054 000:835 JLINK_IsHalted()  returns TRUE (0000ms, 0630ms total)
T2054 000:837 JLINK_WriteMem(0x20000000, 0x0164 Bytes, ...) - Data: 00 BE 0A E0 0D 78 2D 06 68 40 08 24 40 00 00 D3 ... -- CPU_WriteMem(356 bytes @ 0x20000000)  returns 0x164 (0003ms, 0633ms total)
T2054 000:840 JLINK_WriteReg(R0, 0x08000000)  returns 0x00 (0000ms, 0633ms total)
T2054 000:840 JLINK_WriteReg(R1, 0x007A1200)  returns 0x00 (0000ms, 0633ms total)
T2054 000:840 JLINK_WriteReg(R2, 0x00000001)  returns 0x00 (0000ms, 0633ms total)
T2054 000:840 JLINK_WriteReg(R3, 0x00000000)  returns 0x00 (0000ms, 0633ms total)
T2054 000:840 JLINK_WriteReg(R4, 0x00000000)  returns 0x00 (0000ms, 0633ms total)
T2054 000:840 JLINK_WriteReg(R5, 0x00000000)  returns 0x00 (0000ms, 0633ms total)
T2054 000:840 JLINK_WriteReg(R6, 0x00000000)  returns 0x00 (0000ms, 0633ms total)
T2054 000:840 JLINK_WriteReg(R7, 0x00000000)  returns 0x00 (0000ms, 0633ms total)
T2054 000:840 JLINK_WriteReg(R8, 0x00000000)  returns 0x00 (0000ms, 0633ms total)
T2054 000:840 JLINK_WriteReg(R9, 0x20000160)  returns 0x00 (0000ms, 0633ms total)
T2054 000:840 JLINK_WriteReg(R10, 0x00000000)  returns 0x00 (0000ms, 0633ms total)
T2054 000:840 JLINK_WriteReg(R11, 0x00000000)  returns 0x00 (0000ms, 0633ms total)
T2054 000:840 JLINK_WriteReg(R12, 0x00000000)  returns 0x00 (0000ms, 0633ms total)
T2054 000:840 JLINK_WriteReg(R13 (SP), 0x20001000)  returns 0x00 (0000ms, 0633ms total)
T2054 000:840 JLINK_WriteReg(R14, 0x20000001)  returns 0x00 (0000ms, 0633ms total)
T2054 000:840 JLINK_WriteReg(R15 (PC), 0x20000038)  returns 0x00 (0000ms, 0633ms total)
T2054 000:840 JLINK_WriteReg(XPSR, 0x01000000)  returns 0x00 (0000ms, 0633ms total)
T2054 000:840 JLINK_WriteReg(MSP, 0x20001000)  returns 0x00 (0000ms, 0633ms total)
T2054 000:840 JLINK_WriteReg(PSP, 0x20001000)  returns 0x00 (0000ms, 0633ms total)
T2054 000:840 JLINK_WriteReg(CFBP, 0x00000000)  returns 0x00 (0000ms, 0633ms total)
T2054 000:840 JLINK_SetBPEx(Addr = 0x20000000, Type = 0xFFFFFFF2) -- CPU_ReadMem(2 bytes @ 0x20000000)  returns 0x00000001 (0000ms, 0633ms total)
T2054 000:840 JLINK_Go() -- CPU_WriteMem(2 bytes @ 0x20000000) -- CPU_WriteMem(4 bytes @ 0xE0002008) -- CPU_WriteMem(4 bytes @ 0xE000200C) -- CPU_WriteMem(4 bytes @ 0xE0002010) -- CPU_WriteMem(4 bytes @ 0xE0002014) -- CPU_WriteMem(4 bytes @ 0xE0002018) -- CPU_WriteMem(4 bytes @ 0xE000201C) -- CPU_WriteMem(4 bytes @ 0xE0001004) (0003ms, 0636ms total)
T2054 000:843 JLINK_IsHalted() -- CPU_ReadMem(2 bytes @ 0x20000000)  returns TRUE (0002ms, 0638ms total)
T2054 000:845 JLINK_ReadReg(R15 (PC))  returns 0x20000000 (0000ms, 0636ms total)
T2054 000:845 JLINK_ClrBPEx(BPHandle = 0x00000001)  returns 0x00 (0000ms, 0636ms total)
T2054 000:845 JLINK_ReadReg(R0)  returns 0x00000000 (0000ms, 0636ms total)
T2054 000:845 JLINK_WriteReg(R0, 0x08000000)  returns 0x00 (0000ms, 0636ms total)
T2054 000:845 JLINK_WriteReg(R1, 0x007A1200)  returns 0x00 (0000ms, 0636ms total)
T2054 000:845 JLINK_WriteReg(R2, 0x00000001)  returns 0x00 (0000ms, 0636ms total)
T2054 000:845 JLINK_WriteReg(R3, 0x00000000)  returns 0x00 (0000ms, 0636ms total)
T2054 000:845 JLINK_WriteReg(R4, 0x00000000)  returns 0x00 (0000ms, 0636ms total)
T2054 000:845 JLINK_WriteReg(R5, 0x00000000)  returns 0x00 (0000ms, 0636ms total)
T2054 000:845 JLINK_WriteReg(R6, 0x00000000)  returns 0x00 (0000ms, 0636ms total)
T2054 000:845 JLINK_WriteReg(R7, 0x00000000)  returns 0x00 (0000ms, 0636ms total)
T2054 000:845 JLINK_WriteReg(R8, 0x00000000)  returns 0x00 (0000ms, 0636ms total)
T2054 000:845 JLINK_WriteReg(R9, 0x20000160)  returns 0x00 (0000ms, 0636ms total)
T2054 000:845 JLINK_WriteReg(R10, 0x00000000)  returns 0x00 (0000ms, 0636ms total)
T2054 000:845 JLINK_WriteReg(R11, 0x00000000)  returns 0x00 (0000ms, 0636ms total)
T2054 000:845 JLINK_WriteReg(R12, 0x00000000)  returns 0x00 (0000ms, 0636ms total)
T2054 000:845 JLINK_WriteReg(R13 (SP), 0x20001000)  returns 0x00 (0000ms, 0636ms total)
T2054 000:845 JLINK_WriteReg(R14, 0x20000001)  returns 0x00 (0000ms, 0636ms total)
T2054 000:845 JLINK_WriteReg(R15 (PC), 0x2000007C)  returns 0x00 (0000ms, 0636ms total)
T2054 000:845 JLINK_WriteReg(XPSR, 0x01000000)  returns 0x00 (0000ms, 0636ms total)
T2054 000:845 JLINK_WriteReg(MSP, 0x20001000)  returns 0x00 (0000ms, 0636ms total)
T2054 000:845 JLINK_WriteReg(PSP, 0x20001000)  returns 0x00 (0000ms, 0636ms total)
T2054 000:845 JLINK_WriteReg(CFBP, 0x00000000)  returns 0x00 (0000ms, 0636ms total)
T2054 000:845 JLINK_SetBPEx(Addr = 0x20000000, Type = 0xFFFFFFF2)  returns 0x00000002 (0000ms, 0636ms total)
T2054 000:845 JLINK_Go() (0001ms, 0637ms total)
T2054 000:846 JLINK_IsHalted()  returns FALSE (0000ms, 0637ms total)
T2054 000:910 JLINK_IsHalted() -- CPU_ReadMem(2 bytes @ 0x20000000)  returns TRUE (0002ms, 0639ms total)
T2054 000:912 JLINK_ReadReg(R15 (PC))  returns 0x20000000 (0000ms, 0637ms total)
T2054 000:912 JLINK_ClrBPEx(BPHandle = 0x00000002)  returns 0x00 (0000ms, 0637ms total)
T2054 000:912 JLINK_ReadReg(R0)  returns 0x00000000 (0000ms, 0637ms total)
T2054 000:967 JLINK_WriteReg(R0, 0x00000001)  returns 0x00 (0000ms, 0637ms total)
T2054 000:967 JLINK_WriteReg(R1, 0x007A1200)  returns 0x00 (0000ms, 0637ms total)
T2054 000:967 JLINK_WriteReg(R2, 0x00000001)  returns 0x00 (0000ms, 0637ms total)
T2054 000:967 JLINK_WriteReg(R3, 0x00000000)  returns 0x00 (0000ms, 0637ms total)
T2054 000:967 JLINK_WriteReg(R4, 0x00000000)  returns 0x00 (0000ms, 0637ms total)
T2054 000:967 JLINK_WriteReg(R5, 0x00000000)  returns 0x00 (0001ms, 0638ms total)
T2054 000:968 JLINK_WriteReg(R6, 0x00000000)  returns 0x00 (0000ms, 0638ms total)
T2054 000:968 JLINK_WriteReg(R7, 0x00000000)  returns 0x00 (0000ms, 0638ms total)
T2054 000:968 JLINK_WriteReg(R8, 0x00000000)  returns 0x00 (0000ms, 0638ms total)
T2054 000:968 JLINK_WriteReg(R9, 0x20000160)  returns 0x00 (0000ms, 0638ms total)
T2054 000:968 JLINK_WriteReg(R10, 0x00000000)  returns 0x00 (0000ms, 0638ms total)
T2054 000:968 JLINK_WriteReg(R11, 0x00000000)  returns 0x00 (0000ms, 0638ms total)
T2054 000:968 JLINK_WriteReg(R12, 0x00000000)  returns 0x00 (0000ms, 0638ms total)
T2054 000:968 JLINK_WriteReg(R13 (SP), 0x20001000)  returns 0x00 (0000ms, 0638ms total)
T2054 000:968 JLINK_WriteReg(R14, 0x20000001)  returns 0x00 (0000ms, 0638ms total)
T2054 000:968 JLINK_WriteReg(R15 (PC), 0x2000006A)  returns 0x00 (0000ms, 0638ms total)
T2054 000:968 JLINK_WriteReg(XPSR, 0x01000000)  returns 0x00 (0000ms, 0638ms total)
T2054 000:968 JLINK_WriteReg(MSP, 0x20001000)  returns 0x00 (0000ms, 0638ms total)
T2054 000:968 JLINK_WriteReg(PSP, 0x20001000)  returns 0x00 (0000ms, 0638ms total)
T2054 000:968 JLINK_WriteReg(CFBP, 0x00000000)  returns 0x00 (0000ms, 0638ms total)
T2054 000:968 JLINK_SetBPEx(Addr = 0x20000000, Type = 0xFFFFFFF2)  returns 0x00000003 (0000ms, 0638ms total)
T2054 000:968 JLINK_Go() (0002ms, 0640ms total)
T2054 000:970 JLINK_IsHalted() -- CPU_ReadMem(2 bytes @ 0x20000000)  returns TRUE (0003ms, 0643ms total)
T2054 000:973 JLINK_ReadReg(R15 (PC))  returns 0x20000000 (0000ms, 0640ms total)
T2054 000:973 JLINK_ClrBPEx(BPHandle = 0x00000003)  returns 0x00 (0000ms, 0640ms total)
T2054 000:973 JLINK_ReadReg(R0)  returns 0x00000000 (0000ms, 0640ms total)
T2054 000:993 JLINK_WriteMem(0x20000000, 0x0164 Bytes, ...) - Data: 00 BE 0A E0 0D 78 2D 06 68 40 08 24 40 00 00 D3 ... -- CPU_WriteMem(356 bytes @ 0x20000000)  returns 0x164 (0002ms, 0642ms total)
T2054 000:995 JLINK_WriteReg(R0, 0x08000000)  returns 0x00 (0000ms, 0642ms total)
T2054 000:995 JLINK_WriteReg(R1, 0x007A1200)  returns 0x00 (0000ms, 0642ms total)
T2054 000:995 JLINK_WriteReg(R2, 0x00000002)  returns 0x00 (0000ms, 0642ms total)
T2054 000:995 JLINK_WriteReg(R3, 0x00000000)  returns 0x00 (0000ms, 0642ms total)
T2054 000:995 JLINK_WriteReg(R4, 0x00000000)  returns 0x00 (0000ms, 0642ms total)
T2054 000:995 JLINK_WriteReg(R5, 0x00000000)  returns 0x00 (0000ms, 0642ms total)
T2054 000:995 JLINK_WriteReg(R6, 0x00000000)  returns 0x00 (0000ms, 0642ms total)
T2054 000:996 JLINK_WriteReg(R7, 0x00000000)  returns 0x00 (0000ms, 0643ms total)
T2054 000:996 JLINK_WriteReg(R8, 0x00000000)  returns 0x00 (0000ms, 0643ms total)
T2054 000:996 JLINK_WriteReg(R9, 0x20000160)  returns 0x00 (0000ms, 0643ms total)
T2054 000:996 JLINK_WriteReg(R10, 0x00000000)  returns 0x00 (0000ms, 0643ms total)
T2054 000:996 JLINK_WriteReg(R11, 0x00000000)  returns 0x00 (0000ms, 0643ms total)
T2054 000:996 JLINK_WriteReg(R12, 0x00000000)  returns 0x00 (0000ms, 0643ms total)
T2054 000:996 JLINK_WriteReg(R13 (SP), 0x20001000)  returns 0x00 (0000ms, 0643ms total)
T2054 000:996 JLINK_WriteReg(R14, 0x20000001)  returns 0x00 (0000ms, 0643ms total)
T2054 000:997 JLINK_WriteReg(R15 (PC), 0x20000038)  returns 0x00 (0000ms, 0643ms total)
T2054 000:997 JLINK_WriteReg(XPSR, 0x01000000)  returns 0x00 (0000ms, 0643ms total)
T2054 000:997 JLINK_WriteReg(MSP, 0x20001000)  returns 0x00 (0000ms, 0643ms total)
T2054 000:997 JLINK_WriteReg(PSP, 0x20001000)  returns 0x00 (0000ms, 0643ms total)
T2054 000:997 JLINK_WriteReg(CFBP, 0x00000000)  returns 0x00 (0000ms, 0643ms total)
T2054 000:997 JLINK_SetBPEx(Addr = 0x20000000, Type = 0xFFFFFFF2) -- CPU_ReadMem(2 bytes @ 0x20000000)  returns 0x00000004 (0001ms, 0644ms total)
T2054 000:998 JLINK_Go() -- CPU_WriteMem(2 bytes @ 0x20000000) (0002ms, 0646ms total)
T2054 001:000 JLINK_IsHalted() -- CPU_ReadMem(2 bytes @ 0x20000000)  returns TRUE (0003ms, 0649ms total)
T2054 001:003 JLINK_ReadReg(R15 (PC))  returns 0x20000000 (0001ms, 0647ms total)
T2054 001:004 JLINK_ClrBPEx(BPHandle = 0x00000004)  returns 0x00 (0000ms, 0647ms total)
T2054 001:004 JLINK_ReadReg(R0)  returns 0x00000000 (0000ms, 0647ms total)
T2054 001:005 JLINK_WriteMem(0x20000164, 0x0400 Bytes, ...) - Data: D0 1B 00 20 45 01 00 08 BF 0D 00 08 B7 0D 00 08 ... -- CPU_WriteMem(1024 bytes @ 0x20000164)  returns 0x400 (0005ms, 0652ms total)
T2054 001:010 JLINK_WriteReg(R0, 0x08000000)  returns 0x00 (0000ms, 0652ms total)
T2054 001:010 JLINK_WriteReg(R1, 0x00000400)  returns 0x00 (0000ms, 0652ms total)
T2054 001:010 JLINK_WriteReg(R2, 0x20000164)  returns 0x00 (0000ms, 0652ms total)
T2054 001:010 JLINK_WriteReg(R3, 0x00000000)  returns 0x00 (0000ms, 0652ms total)
T2054 001:010 JLINK_WriteReg(R4, 0x00000000)  returns 0x00 (0000ms, 0652ms total)
T2054 001:010 JLINK_WriteReg(R5, 0x00000000)  returns 0x00 (0000ms, 0652ms total)
T2054 001:010 JLINK_WriteReg(R6, 0x00000000)  returns 0x00 (0000ms, 0652ms total)
T2054 001:010 JLINK_WriteReg(R7, 0x00000000)  returns 0x00 (0000ms, 0652ms total)
T2054 001:011 JLINK_WriteReg(R8, 0x00000000)  returns 0x00 (0000ms, 0652ms total)
T2054 001:011 JLINK_WriteReg(R9, 0x20000160)  returns 0x00 (0000ms, 0652ms total)
T2054 001:011 JLINK_WriteReg(R10, 0x00000000)  returns 0x00 (0000ms, 0652ms total)
T2054 001:011 JLINK_WriteReg(R11, 0x00000000)  returns 0x00 (0000ms, 0652ms total)
T2054 001:011 JLINK_WriteReg(R12, 0x00000000)  returns 0x00 (0000ms, 0652ms total)
T2054 001:011 JLINK_WriteReg(R13 (SP), 0x20001000)  returns 0x00 (0000ms, 0652ms total)
T2054 001:011 JLINK_WriteReg(R14, 0x20000001)  returns 0x00 (0000ms, 0652ms total)
T2054 001:011 JLINK_WriteReg(R15 (PC), 0x200000F4)  returns 0x00 (0000ms, 0652ms total)
T2054 001:011 JLINK_WriteReg(XPSR, 0x01000000)  returns 0x00 (0000ms, 0652ms total)
T2054 001:011 JLINK_WriteReg(MSP, 0x20001000)  returns 0x00 (0000ms, 0652ms total)
T2054 001:011 JLINK_WriteReg(PSP, 0x20001000)  returns 0x00 (0000ms, 0652ms total)
T2054 001:011 JLINK_WriteReg(CFBP, 0x00000000)  returns 0x00 (0000ms, 0652ms total)
T2054 001:011 JLINK_SetBPEx(Addr = 0x20000000, Type = 0xFFFFFFF2)  returns 0x00000005 (0000ms, 0652ms total)
T2054 001:011 JLINK_Go() (0002ms, 0654ms total)
T2054 001:013 JLINK_IsHalted()  returns FALSE (0001ms, 0655ms total)
T2054 001:065 JLINK_IsHalted() -- CPU_ReadMem(2 bytes @ 0x20000000)  returns TRUE (0002ms, 0656ms total)
T2054 001:067 JLINK_ReadReg(R15 (PC))  returns 0x20000000 (0000ms, 0654ms total)
T2054 001:068 JLINK_ClrBPEx(BPHandle = 0x00000005)  returns 0x00 (0000ms, 0655ms total)
T2054 001:068 JLINK_ReadReg(R0)  returns 0x00000000 (0000ms, 0655ms total)
T2054 001:069 JLINK_WriteMem(0x20000164, 0x0400 Bytes, ...) - Data: 4F EA 30 00 92 18 5B 41 50 EA 01 07 ED D1 52 EA ... -- CPU_WriteMem(1024 bytes @ 0x20000164)  returns 0x400 (0004ms, 0659ms total)
T2054 001:073 JLINK_WriteReg(R0, 0x08000400)  returns 0x00 (0000ms, 0659ms total)
T2054 001:073 JLINK_WriteReg(R1, 0x00000400)  returns 0x00 (0000ms, 0659ms total)
T2054 001:073 JLINK_WriteReg(R2, 0x20000164)  returns 0x00 (0000ms, 0659ms total)
T2054 001:073 JLINK_WriteReg(R3, 0x00000000)  returns 0x00 (0000ms, 0659ms total)
T2054 001:073 JLINK_WriteReg(R4, 0x00000000)  returns 0x00 (0000ms, 0659ms total)
T2054 001:073 JLINK_WriteReg(R5, 0x00000000)  returns 0x00 (0000ms, 0659ms total)
T2054 001:073 JLINK_WriteReg(R6, 0x00000000)  returns 0x00 (0000ms, 0659ms total)
T2054 001:073 JLINK_WriteReg(R7, 0x00000000)  returns 0x00 (0000ms, 0659ms total)
T2054 001:073 JLINK_WriteReg(R8, 0x00000000)  returns 0x00 (0000ms, 0659ms total)
T2054 001:073 JLINK_WriteReg(R9, 0x20000160)  returns 0x00 (0000ms, 0659ms total)
T2054 001:073 JLINK_WriteReg(R10, 0x00000000)  returns 0x00 (0000ms, 0659ms total)
T2054 001:073 JLINK_WriteReg(R11, 0x00000000)  returns 0x00 (0000ms, 0659ms total)
T2054 001:073 JLINK_WriteReg(R12, 0x00000000)  returns 0x00 (0000ms, 0659ms total)
T2054 001:073 JLINK_WriteReg(R13 (SP), 0x20001000)  returns 0x00 (0000ms, 0659ms total)
T2054 001:073 JLINK_WriteReg(R14, 0x20000001)  returns 0x00 (0000ms, 0659ms total)
T2054 001:073 JLINK_WriteReg(R15 (PC), 0x200000F4)  returns 0x00 (0000ms, 0659ms total)
T2054 001:073 JLINK_WriteReg(XPSR, 0x01000000)  returns 0x00 (0000ms, 0659ms total)
T2054 001:073 JLINK_WriteReg(MSP, 0x20001000)  returns 0x00 (0000ms, 0659ms total)
T2054 001:073 JLINK_WriteReg(PSP, 0x20001000)  returns 0x00 (0001ms, 0660ms total)
T2054 001:074 JLINK_WriteReg(CFBP, 0x00000000)  returns 0x00 (0000ms, 0660ms total)
T2054 001:074 JLINK_SetBPEx(Addr = 0x20000000, Type = 0xFFFFFFF2)  returns 0x00000006 (0000ms, 0660ms total)
T2054 001:074 JLINK_Go() (0001ms, 0661ms total)
T2054 001:075 JLINK_IsHalted()  returns FALSE (0000ms, 0661ms total)
T2054 001:083 JLINK_IsHalted()  returns FALSE (0000ms, 0661ms total)
T2054 001:085 JLINK_IsHalted()  returns FALSE (0000ms, 0661ms total)
T2054 001:087 JLINK_IsHalted()  returns FALSE (0000ms, 0661ms total)
T2054 001:089 JLINK_IsHalted()  returns FALSE (0000ms, 0661ms total)
T2054 001:093 JLINK_IsHalted()  returns FALSE (0000ms, 0661ms total)
T2054 001:095 JLINK_IsHalted()  returns FALSE (0000ms, 0661ms total)
T2054 001:097 JLINK_IsHalted()  returns FALSE (0000ms, 0661ms total)
T2054 001:100 JLINK_IsHalted()  returns FALSE (0000ms, 0661ms total)
T2054 001:101 JLINK_IsHalted()  returns FALSE (0001ms, 0662ms total)
T2054 001:104 JLINK_IsHalted()  returns FALSE (0000ms, 0661ms total)
T2054 001:105 JLINK_IsHalted()  returns FALSE (0001ms, 0662ms total)
T2054 001:107 JLINK_IsHalted() -- CPU_ReadMem(2 bytes @ 0x20000000)  returns TRUE (0003ms, 0664ms total)
T2054 001:110 JLINK_ReadReg(R15 (PC))  returns 0x20000000 (0000ms, 0661ms total)
T2054 001:110 JLINK_ClrBPEx(BPHandle = 0x00000006)  returns 0x00 (0000ms, 0661ms total)
T2054 001:110 JLINK_ReadReg(R0)  returns 0x00000000 (0000ms, 0661ms total)
T2054 001:111 JLINK_WriteMem(0x20000164, 0x0400 Bytes, ...) - Data: CA 43 02 60 70 47 00 22 0A 12 D3 43 03 60 70 47 ... -- CPU_WriteMem(1024 bytes @ 0x20000164)  returns 0x400 (0004ms, 0665ms total)
T2054 001:115 JLINK_WriteReg(R0, 0x08000800)  returns 0x00 (0000ms, 0665ms total)
T2054 001:115 JLINK_WriteReg(R1, 0x00000400)  returns 0x00 (0000ms, 0665ms total)
T2054 001:115 JLINK_WriteReg(R2, 0x20000164)  returns 0x00 (0000ms, 0665ms total)
T2054 001:115 JLINK_WriteReg(R3, 0x00000000)  returns 0x00 (0000ms, 0665ms total)
T2054 001:115 JLINK_WriteReg(R4, 0x00000000)  returns 0x00 (0000ms, 0665ms total)
T2054 001:115 JLINK_WriteReg(R5, 0x00000000)  returns 0x00 (0000ms, 0665ms total)
T2054 001:115 JLINK_WriteReg(R6, 0x00000000)  returns 0x00 (0000ms, 0665ms total)
T2054 001:115 JLINK_WriteReg(R7, 0x00000000)  returns 0x00 (0000ms, 0665ms total)
T2054 001:115 JLINK_WriteReg(R8, 0x00000000)  returns 0x00 (0000ms, 0665ms total)
T2054 001:115 JLINK_WriteReg(R9, 0x20000160)  returns 0x00 (0000ms, 0665ms total)
T2054 001:115 JLINK_WriteReg(R10, 0x00000000)  returns 0x00 (0000ms, 0665ms total)
T2054 001:115 JLINK_WriteReg(R11, 0x00000000)  returns 0x00 (0000ms, 0665ms total)
T2054 001:115 JLINK_WriteReg(R12, 0x00000000)  returns 0x00 (0000ms, 0665ms total)
T2054 001:115 JLINK_WriteReg(R13 (SP), 0x20001000)  returns 0x00 (0000ms, 0665ms total)
T2054 001:115 JLINK_WriteReg(R14, 0x20000001)  returns 0x00 (0000ms, 0665ms total)
T2054 001:115 JLINK_WriteReg(R15 (PC), 0x200000F4)  returns 0x00 (0000ms, 0665ms total)
T2054 001:115 JLINK_WriteReg(XPSR, 0x01000000)  returns 0x00 (0000ms, 0665ms total)
T2054 001:115 JLINK_WriteReg(MSP, 0x20001000)  returns 0x00 (0000ms, 0665ms total)
T2054 001:115 JLINK_WriteReg(PSP, 0x20001000)  returns 0x00 (0000ms, 0665ms total)
T2054 001:115 JLINK_WriteReg(CFBP, 0x00000000)  returns 0x00 (0000ms, 0665ms total)
T2054 001:115 JLINK_SetBPEx(Addr = 0x20000000, Type = 0xFFFFFFF2)  returns 0x00000007 (0001ms, 0666ms total)
T2054 001:116 JLINK_Go() (0001ms, 0667ms total)
T2054 001:117 JLINK_IsHalted()  returns FALSE (0000ms, 0667ms total)
T2054 001:134 JLINK_IsHalted()  returns FALSE (0000ms, 0667ms total)
T2054 001:136 JLINK_IsHalted()  returns FALSE (0001ms, 0668ms total)
T2054 001:138 JLINK_IsHalted()  returns FALSE (0001ms, 0668ms total)
T2054 001:140 JLINK_IsHalted()  returns FALSE (0001ms, 0668ms total)
T2054 001:142 JLINK_IsHalted()  returns FALSE (0001ms, 0668ms total)
T2054 001:145 JLINK_IsHalted()  returns FALSE (0000ms, 0667ms total)
T2054 001:147 JLINK_IsHalted()  returns FALSE (0000ms, 0667ms total)
T2054 001:149 JLINK_IsHalted() -- CPU_ReadMem(2 bytes @ 0x20000000)  returns TRUE (0003ms, 0670ms total)
T2054 001:152 JLINK_ReadReg(R15 (PC))  returns 0x20000000 (0000ms, 0667ms total)
T2054 001:152 JLINK_ClrBPEx(BPHandle = 0x00000007)  returns 0x00 (0000ms, 0667ms total)
T2054 001:152 JLINK_ReadReg(R0)  returns 0x00000000 (0000ms, 0667ms total)
T2054 001:154 JLINK_WriteMem(0x20000164, 0x0400 Bytes, ...) - Data: 00 23 00 24 00 27 91 F8 03 C0 0C F0 0F 05 91 F8 ... -- CPU_WriteMem(1024 bytes @ 0x20000164)  returns 0x400 (0004ms, 0671ms total)
T2054 001:158 JLINK_WriteReg(R0, 0x08000C00)  returns 0x00 (0000ms, 0671ms total)
T2054 001:158 JLINK_WriteReg(R1, 0x00000400)  returns 0x00 (0000ms, 0671ms total)
T2054 001:158 JLINK_WriteReg(R2, 0x20000164)  returns 0x00 (0000ms, 0671ms total)
T2054 001:158 JLINK_WriteReg(R3, 0x00000000)  returns 0x00 (0000ms, 0671ms total)
T2054 001:158 JLINK_WriteReg(R4, 0x00000000)  returns 0x00 (0000ms, 0671ms total)
T2054 001:158 JLINK_WriteReg(R5, 0x00000000)  returns 0x00 (0000ms, 0671ms total)
T2054 001:158 JLINK_WriteReg(R6, 0x00000000)  returns 0x00 (0000ms, 0671ms total)
T2054 001:158 JLINK_WriteReg(R7, 0x00000000)  returns 0x00 (0000ms, 0671ms total)
T2054 001:158 JLINK_WriteReg(R8, 0x00000000)  returns 0x00 (0000ms, 0671ms total)
T2054 001:158 JLINK_WriteReg(R9, 0x20000160)  returns 0x00 (0000ms, 0671ms total)
T2054 001:158 JLINK_WriteReg(R10, 0x00000000)  returns 0x00 (0000ms, 0671ms total)
T2054 001:159 JLINK_WriteReg(R11, 0x00000000)  returns 0x00 (0000ms, 0672ms total)
T2054 001:159 JLINK_WriteReg(R12, 0x00000000)  returns 0x00 (0000ms, 0672ms total)
T2054 001:159 JLINK_WriteReg(R13 (SP), 0x20001000)  returns 0x00 (0000ms, 0672ms total)
T2054 001:159 JLINK_WriteReg(R14, 0x20000001)  returns 0x00 (0000ms, 0672ms total)
T2054 001:159 JLINK_WriteReg(R15 (PC), 0x200000F4)  returns 0x00 (0000ms, 0672ms total)
T2054 001:159 JLINK_WriteReg(XPSR, 0x01000000)  returns 0x00 (0000ms, 0672ms total)
T2054 001:159 JLINK_WriteReg(MSP, 0x20001000)  returns 0x00 (0000ms, 0672ms total)
T2054 001:159 JLINK_WriteReg(PSP, 0x20001000)  returns 0x00 (0000ms, 0672ms total)
T2054 001:159 JLINK_WriteReg(CFBP, 0x00000000)  returns 0x00 (0000ms, 0672ms total)
T2054 001:159 JLINK_SetBPEx(Addr = 0x20000000, Type = 0xFFFFFFF2)  returns 0x00000008 (0000ms, 0672ms total)
T2054 001:159 JLINK_Go() (0001ms, 0673ms total)
T2054 001:160 JLINK_IsHalted()  returns FALSE (0001ms, 0674ms total)
T2054 001:163 JLINK_IsHalted()  returns FALSE (0000ms, 0673ms total)
T2054 001:165 JLINK_IsHalted()  returns FALSE (0000ms, 0673ms total)
T2054 001:167 JLINK_IsHalted()  returns FALSE (0000ms, 0673ms total)
T2054 001:169 JLINK_IsHalted()  returns FALSE (0000ms, 0673ms total)
T2054 001:171 JLINK_IsHalted()  returns FALSE (0000ms, 0673ms total)
T2054 001:173 JLINK_IsHalted()  returns FALSE (0000ms, 0673ms total)
T2054 001:175 JLINK_IsHalted()  returns FALSE (0000ms, 0673ms total)
T2054 001:177 JLINK_IsHalted()  returns FALSE (0000ms, 0673ms total)
T2054 001:179 JLINK_IsHalted()  returns FALSE (0000ms, 0673ms total)
T2054 001:181 JLINK_IsHalted()  returns FALSE (0000ms, 0673ms total)
T2054 001:183 JLINK_IsHalted()  returns FALSE (0000ms, 0673ms total)
T2054 001:187 JLINK_IsHalted()  returns FALSE (0000ms, 0673ms total)
T2054 001:189 JLINK_IsHalted()  returns FALSE (0000ms, 0673ms total)
T2054 001:191 JLINK_IsHalted()  returns FALSE (0000ms, 0673ms total)
T2054 001:193 JLINK_IsHalted() -- CPU_ReadMem(2 bytes @ 0x20000000)  returns TRUE (0001ms, 0674ms total)
T2054 001:194 JLINK_ReadReg(R15 (PC))  returns 0x20000000 (0000ms, 0673ms total)
T2054 001:194 JLINK_ClrBPEx(BPHandle = 0x00000008)  returns 0x00 (0000ms, 0673ms total)
T2054 001:194 JLINK_ReadReg(R0)  returns 0x00000000 (0001ms, 0674ms total)
T2054 001:196 JLINK_WriteMem(0x20000164, 0x0400 Bytes, ...) - Data: 00 23 2D 4D 6D 68 05 F0 0C 01 21 B1 04 29 05 D0 ... -- CPU_WriteMem(1024 bytes @ 0x20000164)  returns 0x400 (0003ms, 0677ms total)
T2054 001:199 JLINK_WriteReg(R0, 0x08001000)  returns 0x00 (0000ms, 0677ms total)
T2054 001:200 JLINK_WriteReg(R1, 0x00000400)  returns 0x00 (0000ms, 0678ms total)
T2054 001:200 JLINK_WriteReg(R2, 0x20000164)  returns 0x00 (0000ms, 0678ms total)
T2054 001:200 JLINK_WriteReg(R3, 0x00000000)  returns 0x00 (0000ms, 0678ms total)
T2054 001:200 JLINK_WriteReg(R4, 0x00000000)  returns 0x00 (0000ms, 0678ms total)
T2054 001:200 JLINK_WriteReg(R5, 0x00000000)  returns 0x00 (0000ms, 0678ms total)
T2054 001:200 JLINK_WriteReg(R6, 0x00000000)  returns 0x00 (0000ms, 0678ms total)
T2054 001:200 JLINK_WriteReg(R7, 0x00000000)  returns 0x00 (0000ms, 0678ms total)
T2054 001:200 JLINK_WriteReg(R8, 0x00000000)  returns 0x00 (0000ms, 0678ms total)
T2054 001:200 JLINK_WriteReg(R9, 0x20000160)  returns 0x00 (0000ms, 0678ms total)
T2054 001:200 JLINK_WriteReg(R10, 0x00000000)  returns 0x00 (0000ms, 0678ms total)
T2054 001:200 JLINK_WriteReg(R11, 0x00000000)  returns 0x00 (0000ms, 0678ms total)
T2054 001:200 JLINK_WriteReg(R12, 0x00000000)  returns 0x00 (0000ms, 0678ms total)
T2054 001:200 JLINK_WriteReg(R13 (SP), 0x20001000)  returns 0x00 (0000ms, 0678ms total)
T2054 001:200 JLINK_WriteReg(R14, 0x20000001)  returns 0x00 (0000ms, 0678ms total)
T2054 001:200 JLINK_WriteReg(R15 (PC), 0x200000F4)  returns 0x00 (0000ms, 0678ms total)
T2054 001:200 JLINK_WriteReg(XPSR, 0x01000000)  returns 0x00 (0000ms, 0678ms total)
T2054 001:200 JLINK_WriteReg(MSP, 0x20001000)  returns 0x00 (0000ms, 0678ms total)
T2054 001:200 JLINK_WriteReg(PSP, 0x20001000)  returns 0x00 (0000ms, 0678ms total)
T2054 001:200 JLINK_WriteReg(CFBP, 0x00000000)  returns 0x00 (0000ms, 0678ms total)
T2054 001:200 JLINK_SetBPEx(Addr = 0x20000000, Type = 0xFFFFFFF2)  returns 0x00000009 (0000ms, 0678ms total)
T2054 001:200 JLINK_Go() (0002ms, 0680ms total)
T2054 001:202 JLINK_IsHalted()  returns FALSE (0000ms, 0680ms total)
T2054 001:208 JLINK_IsHalted()  returns FALSE (0000ms, 0680ms total)
T2054 001:210 JLINK_IsHalted()  returns FALSE (0000ms, 0680ms total)
T2054 001:212 JLINK_IsHalted()  returns FALSE (0001ms, 0681ms total)
T2054 001:248 JLINK_IsHalted() -- CPU_ReadMem(2 bytes @ 0x20000000)  returns TRUE (0003ms, 0683ms total)
T2054 001:251 JLINK_ReadReg(R15 (PC))  returns 0x20000000 (0000ms, 0680ms total)
T2054 001:251 JLINK_ClrBPEx(BPHandle = 0x00000009)  returns 0x00 (0000ms, 0680ms total)
T2054 001:251 JLINK_ReadReg(R0)  returns 0x00000000 (0000ms, 0680ms total)
T2054 001:253 JLINK_WriteMem(0x20000164, 0x0400 Bytes, ...) - Data: 10 BD 00 00 DB 0F 00 20 00 14 01 40 E0 0F 00 20 ... -- CPU_WriteMem(1024 bytes @ 0x20000164)  returns 0x400 (0004ms, 0684ms total)
T2054 001:257 JLINK_WriteReg(R0, 0x08001400)  returns 0x00 (0000ms, 0684ms total)
T2054 001:257 JLINK_WriteReg(R1, 0x00000400)  returns 0x00 (0000ms, 0684ms total)
T2054 001:257 JLINK_WriteReg(R2, 0x20000164)  returns 0x00 (0000ms, 0684ms total)
T2054 001:257 JLINK_WriteReg(R3, 0x00000000)  returns 0x00 (0000ms, 0684ms total)
T2054 001:257 JLINK_WriteReg(R4, 0x00000000)  returns 0x00 (0000ms, 0684ms total)
T2054 001:257 JLINK_WriteReg(R5, 0x00000000)  returns 0x00 (0000ms, 0684ms total)
T2054 001:257 JLINK_WriteReg(R6, 0x00000000)  returns 0x00 (0000ms, 0684ms total)
T2054 001:257 JLINK_WriteReg(R7, 0x00000000)  returns 0x00 (0001ms, 0685ms total)
T2054 001:258 JLINK_WriteReg(R8, 0x00000000)  returns 0x00 (0000ms, 0685ms total)
T2054 001:258 JLINK_WriteReg(R9, 0x20000160)  returns 0x00 (0000ms, 0685ms total)
T2054 001:258 JLINK_WriteReg(R10, 0x00000000)  returns 0x00 (0000ms, 0685ms total)
T2054 001:258 JLINK_WriteReg(R11, 0x00000000)  returns 0x00 (0000ms, 0685ms total)
T2054 001:258 JLINK_WriteReg(R12, 0x00000000)  returns 0x00 (0000ms, 0685ms total)
T2054 001:258 JLINK_WriteReg(R13 (SP), 0x20001000)  returns 0x00 (0000ms, 0685ms total)
T2054 001:258 JLINK_WriteReg(R14, 0x20000001)  returns 0x00 (0000ms, 0685ms total)
T2054 001:258 JLINK_WriteReg(R15 (PC), 0x200000F4)  returns 0x00 (0000ms, 0685ms total)
T2054 001:258 JLINK_WriteReg(XPSR, 0x01000000)  returns 0x00 (0000ms, 0685ms total)
T2054 001:258 JLINK_WriteReg(MSP, 0x20001000)  returns 0x00 (0000ms, 0685ms total)
T2054 001:258 JLINK_WriteReg(PSP, 0x20001000)  returns 0x00 (0000ms, 0685ms total)
T2054 001:258 JLINK_WriteReg(CFBP, 0x00000000)  returns 0x00 (0000ms, 0685ms total)
T2054 001:258 JLINK_SetBPEx(Addr = 0x20000000, Type = 0xFFFFFFF2)  returns 0x0000000A (0000ms, 0685ms total)
T2054 001:258 JLINK_Go() (0002ms, 0687ms total)
T2054 001:260 JLINK_IsHalted()  returns FALSE (0001ms, 0688ms total)
T2054 001:262 JLINK_IsHalted()  returns FALSE (0001ms, 0688ms total)
T2054 001:265 JLINK_IsHalted()  returns FALSE (0000ms, 0687ms total)
T2054 001:267 JLINK_IsHalted()  returns FALSE (0000ms, 0687ms total)
T2054 001:269 JLINK_IsHalted()  returns FALSE (0001ms, 0688ms total)
T2054 001:272 JLINK_IsHalted()  returns FALSE (0000ms, 0687ms total)
T2054 001:274 JLINK_IsHalted()  returns FALSE (0001ms, 0688ms total)
T2054 001:277 JLINK_IsHalted()  returns FALSE (0000ms, 0687ms total)
T2054 001:279 JLINK_IsHalted()  returns FALSE (0001ms, 0688ms total)
T2054 001:281 JLINK_IsHalted()  returns FALSE (0001ms, 0688ms total)
T2054 001:283 JLINK_IsHalted()  returns FALSE (0000ms, 0687ms total)
T2054 001:285 JLINK_IsHalted()  returns FALSE (0001ms, 0688ms total)
T2054 001:288 JLINK_IsHalted()  returns FALSE (0000ms, 0687ms total)
T2054 001:290 JLINK_IsHalted()  returns FALSE (0000ms, 0687ms total)
T2054 001:292 JLINK_IsHalted() -- CPU_ReadMem(2 bytes @ 0x20000000)  returns TRUE (0003ms, 0690ms total)
T2054 001:295 JLINK_ReadReg(R15 (PC))  returns 0x20000000 (0000ms, 0687ms total)
T2054 001:295 JLINK_ClrBPEx(BPHandle = 0x0000000A)  returns 0x00 (0000ms, 0687ms total)
T2054 001:295 JLINK_ReadReg(R0)  returns 0x00000000 (0000ms, 0687ms total)
T2054 001:297 JLINK_WriteMem(0x20000164, 0x0400 Bytes, ...) - Data: 80 68 09 68 88 42 07 D8 21 48 C0 68 20 49 48 61 ... -- CPU_WriteMem(1024 bytes @ 0x20000164)  returns 0x400 (0004ms, 0691ms total)
T2054 001:301 JLINK_WriteReg(R0, 0x08001800)  returns 0x00 (0000ms, 0691ms total)
T2054 001:302 JLINK_WriteReg(R1, 0x00000400)  returns 0x00 (0000ms, 0691ms total)
T2054 001:302 JLINK_WriteReg(R2, 0x20000164)  returns 0x00 (0000ms, 0691ms total)
T2054 001:302 JLINK_WriteReg(R3, 0x00000000)  returns 0x00 (0000ms, 0691ms total)
T2054 001:302 JLINK_WriteReg(R4, 0x00000000)  returns 0x00 (0000ms, 0691ms total)
T2054 001:302 JLINK_WriteReg(R5, 0x00000000)  returns 0x00 (0000ms, 0691ms total)
T2054 001:302 JLINK_WriteReg(R6, 0x00000000)  returns 0x00 (0000ms, 0691ms total)
T2054 001:302 JLINK_WriteReg(R7, 0x00000000)  returns 0x00 (0000ms, 0691ms total)
T2054 001:302 JLINK_WriteReg(R8, 0x00000000)  returns 0x00 (0000ms, 0691ms total)
T2054 001:302 JLINK_WriteReg(R9, 0x20000160)  returns 0x00 (0000ms, 0691ms total)
T2054 001:302 JLINK_WriteReg(R10, 0x00000000)  returns 0x00 (0000ms, 0691ms total)
T2054 001:302 JLINK_WriteReg(R11, 0x00000000)  returns 0x00 (0000ms, 0691ms total)
T2054 001:302 JLINK_WriteReg(R12, 0x00000000)  returns 0x00 (0000ms, 0691ms total)
T2054 001:302 JLINK_WriteReg(R13 (SP), 0x20001000)  returns 0x00 (0000ms, 0691ms total)
T2054 001:302 JLINK_WriteReg(R14, 0x20000001)  returns 0x00 (0000ms, 0691ms total)
T2054 001:302 JLINK_WriteReg(R15 (PC), 0x200000F4)  returns 0x00 (0001ms, 0692ms total)
T2054 001:303 JLINK_WriteReg(XPSR, 0x01000000)  returns 0x00 (0000ms, 0692ms total)
T2054 001:303 JLINK_WriteReg(MSP, 0x20001000)  returns 0x00 (0000ms, 0692ms total)
T2054 001:303 JLINK_WriteReg(PSP, 0x20001000)  returns 0x00 (0000ms, 0692ms total)
T2054 001:303 JLINK_WriteReg(CFBP, 0x00000000)  returns 0x00 (0000ms, 0692ms total)
T2054 001:303 JLINK_SetBPEx(Addr = 0x20000000, Type = 0xFFFFFFF2)  returns 0x0000000B (0000ms, 0692ms total)
T2054 001:303 JLINK_Go() (0001ms, 0693ms total)
T2054 001:304 JLINK_IsHalted()  returns FALSE (0001ms, 0694ms total)
T2054 001:313 JLINK_IsHalted()  returns FALSE (0000ms, 0693ms total)
T2054 001:315 JLINK_IsHalted()  returns FALSE (0001ms, 0694ms total)
T2054 001:318 JLINK_IsHalted()  returns FALSE (0000ms, 0693ms total)
T2054 001:320 JLINK_IsHalted()  returns FALSE (0001ms, 0694ms total)
T2054 001:323 JLINK_IsHalted()  returns FALSE (0000ms, 0693ms total)
T2054 001:325 JLINK_IsHalted()  returns FALSE (0000ms, 0693ms total)
T2054 001:327 JLINK_IsHalted()  returns FALSE (0000ms, 0693ms total)
T2054 001:357 JLINK_IsHalted() -- CPU_ReadMem(2 bytes @ 0x20000000)  returns TRUE (0002ms, 0695ms total)
T2054 001:359 JLINK_ReadReg(R15 (PC))  returns 0x20000000 (0000ms, 0693ms total)
T2054 001:359 JLINK_ClrBPEx(BPHandle = 0x0000000B)  returns 0x00 (0000ms, 0693ms total)
T2054 001:359 JLINK_ReadReg(R0)  returns 0x00000000 (0000ms, 0693ms total)
T2054 001:360 JLINK_WriteMem(0x20000164, 0x0400 Bytes, ...) - Data: 30 B5 02 46 00 20 00 23 00 24 15 8A 05 EA 01 03 ... -- CPU_WriteMem(1024 bytes @ 0x20000164)  returns 0x400 (0005ms, 0698ms total)
T2054 001:365 JLINK_WriteReg(R0, 0x08001C00)  returns 0x00 (0000ms, 0698ms total)
T2054 001:365 JLINK_WriteReg(R1, 0x00000400)  returns 0x00 (0000ms, 0698ms total)
T2054 001:365 JLINK_WriteReg(R2, 0x20000164)  returns 0x00 (0000ms, 0698ms total)
T2054 001:365 JLINK_WriteReg(R3, 0x00000000)  returns 0x00 (0000ms, 0698ms total)
T2054 001:365 JLINK_WriteReg(R4, 0x00000000)  returns 0x00 (0000ms, 0698ms total)
T2054 001:365 JLINK_WriteReg(R5, 0x00000000)  returns 0x00 (0000ms, 0698ms total)
T2054 001:365 JLINK_WriteReg(R6, 0x00000000)  returns 0x00 (0000ms, 0698ms total)
T2054 001:365 JLINK_WriteReg(R7, 0x00000000)  returns 0x00 (0000ms, 0698ms total)
T2054 001:365 JLINK_WriteReg(R8, 0x00000000)  returns 0x00 (0000ms, 0698ms total)
T2054 001:365 JLINK_WriteReg(R9, 0x20000160)  returns 0x00 (0000ms, 0698ms total)
T2054 001:365 JLINK_WriteReg(R10, 0x00000000)  returns 0x00 (0000ms, 0698ms total)
T2054 001:365 JLINK_WriteReg(R11, 0x00000000)  returns 0x00 (0000ms, 0698ms total)
T2054 001:365 JLINK_WriteReg(R12, 0x00000000)  returns 0x00 (0000ms, 0698ms total)
T2054 001:365 JLINK_WriteReg(R13 (SP), 0x20001000)  returns 0x00 (0000ms, 0698ms total)
T2054 001:365 JLINK_WriteReg(R14, 0x20000001)  returns 0x00 (0000ms, 0698ms total)
T2054 001:365 JLINK_WriteReg(R15 (PC), 0x200000F4)  returns 0x00 (0001ms, 0699ms total)
T2054 001:366 JLINK_WriteReg(XPSR, 0x01000000)  returns 0x00 (0000ms, 0699ms total)
T2054 001:366 JLINK_WriteReg(MSP, 0x20001000)  returns 0x00 (0000ms, 0699ms total)
T2054 001:366 JLINK_WriteReg(PSP, 0x20001000)  returns 0x00 (0000ms, 0699ms total)
T2054 001:366 JLINK_WriteReg(CFBP, 0x00000000)  returns 0x00 (0000ms, 0699ms total)
T2054 001:366 JLINK_SetBPEx(Addr = 0x20000000, Type = 0xFFFFFFF2)  returns 0x0000000C (0000ms, 0699ms total)
T2054 001:366 JLINK_Go() (0001ms, 0700ms total)
T2054 001:367 JLINK_IsHalted()  returns FALSE (0001ms, 0701ms total)
T2054 001:370 JLINK_IsHalted()  returns FALSE (0000ms, 0700ms total)
T2054 001:372 JLINK_IsHalted()  returns FALSE (0000ms, 0700ms total)
T2054 001:374 JLINK_IsHalted()  returns FALSE (0000ms, 0700ms total)
T2054 001:376 JLINK_IsHalted()  returns FALSE (0000ms, 0700ms total)
T2054 001:378 JLINK_IsHalted()  returns FALSE (0000ms, 0700ms total)
T2054 001:380 JLINK_IsHalted()  returns FALSE (0000ms, 0700ms total)
T2054 001:382 JLINK_IsHalted()  returns FALSE (0000ms, 0700ms total)
T2054 001:384 JLINK_IsHalted()  returns FALSE (0000ms, 0700ms total)
T2054 001:386 JLINK_IsHalted()  returns FALSE (0000ms, 0700ms total)
T2054 001:388 JLINK_IsHalted()  returns FALSE (0000ms, 0700ms total)
T2054 001:390 JLINK_IsHalted()  returns FALSE (0000ms, 0700ms total)
T2054 001:392 JLINK_IsHalted()  returns FALSE (0001ms, 0701ms total)
T2054 001:394 JLINK_IsHalted()  returns FALSE (0001ms, 0701ms total)
T2054 001:396 JLINK_IsHalted()  returns FALSE (0000ms, 0700ms total)
T2054 001:397 JLINK_IsHalted()  returns FALSE (0000ms, 0700ms total)
T2054 001:399 JLINK_IsHalted() -- CPU_ReadMem(2 bytes @ 0x20000000)  returns TRUE (0003ms, 0703ms total)
T2054 001:402 JLINK_ReadReg(R15 (PC))  returns 0x20000000 (0000ms, 0700ms total)
T2054 001:402 JLINK_ClrBPEx(BPHandle = 0x0000000C)  returns 0x00 (0000ms, 0700ms total)
T2054 001:402 JLINK_ReadReg(R0)  returns 0x00000000 (0000ms, 0700ms total)
T2054 001:403 JLINK_WriteMem(0x20000164, 0x0400 Bytes, ...) - Data: AA 28 08 D1 00 21 04 20 01 F0 A6 F8 00 21 04 20 ... -- CPU_WriteMem(1024 bytes @ 0x20000164)  returns 0x400 (0005ms, 0705ms total)
T2054 001:408 JLINK_WriteReg(R0, 0x08002000)  returns 0x00 (0000ms, 0705ms total)
T2054 001:408 JLINK_WriteReg(R1, 0x00000400)  returns 0x00 (0000ms, 0705ms total)
T2054 001:408 JLINK_WriteReg(R2, 0x20000164)  returns 0x00 (0000ms, 0705ms total)
T2054 001:408 JLINK_WriteReg(R3, 0x00000000)  returns 0x00 (0000ms, 0705ms total)
T2054 001:408 JLINK_WriteReg(R4, 0x00000000)  returns 0x00 (0000ms, 0705ms total)
T2054 001:408 JLINK_WriteReg(R5, 0x00000000)  returns 0x00 (0000ms, 0705ms total)
T2054 001:408 JLINK_WriteReg(R6, 0x00000000)  returns 0x00 (0000ms, 0705ms total)
T2054 001:408 JLINK_WriteReg(R7, 0x00000000)  returns 0x00 (0000ms, 0705ms total)
T2054 001:408 JLINK_WriteReg(R8, 0x00000000)  returns 0x00 (0000ms, 0705ms total)
T2054 001:408 JLINK_WriteReg(R9, 0x20000160)  returns 0x00 (0000ms, 0705ms total)
T2054 001:408 JLINK_WriteReg(R10, 0x00000000)  returns 0x00 (0000ms, 0705ms total)
T2054 001:408 JLINK_WriteReg(R11, 0x00000000)  returns 0x00 (0000ms, 0705ms total)
T2054 001:408 JLINK_WriteReg(R12, 0x00000000)  returns 0x00 (0000ms, 0705ms total)
T2054 001:408 JLINK_WriteReg(R13 (SP), 0x20001000)  returns 0x00 (0000ms, 0705ms total)
T2054 001:408 JLINK_WriteReg(R14, 0x20000001)  returns 0x00 (0000ms, 0705ms total)
T2054 001:408 JLINK_WriteReg(R15 (PC), 0x200000F4)  returns 0x00 (0000ms, 0705ms total)
T2054 001:408 JLINK_WriteReg(XPSR, 0x01000000)  returns 0x00 (0000ms, 0705ms total)
T2054 001:408 JLINK_WriteReg(MSP, 0x20001000)  returns 0x00 (0001ms, 0706ms total)
T2054 001:409 JLINK_WriteReg(PSP, 0x20001000)  returns 0x00 (0000ms, 0706ms total)
T2054 001:409 JLINK_WriteReg(CFBP, 0x00000000)  returns 0x00 (0000ms, 0706ms total)
T2054 001:409 JLINK_SetBPEx(Addr = 0x20000000, Type = 0xFFFFFFF2)  returns 0x0000000D (0000ms, 0706ms total)
T2054 001:409 JLINK_Go() (0000ms, 0706ms total)
T2054 001:409 JLINK_IsHalted()  returns FALSE (0001ms, 0707ms total)
T2054 001:412 JLINK_IsHalted()  returns FALSE (0000ms, 0706ms total)
T2054 001:414 JLINK_IsHalted()  returns FALSE (0000ms, 0706ms total)
T2054 001:416 JLINK_IsHalted()  returns FALSE (0000ms, 0706ms total)
T2054 001:418 JLINK_IsHalted()  returns FALSE (0001ms, 0707ms total)
T2054 001:422 JLINK_IsHalted()  returns FALSE (0001ms, 0707ms total)
T2054 001:425 JLINK_IsHalted()  returns FALSE (0000ms, 0706ms total)
T2054 001:427 JLINK_IsHalted()  returns FALSE (0001ms, 0707ms total)
T2054 001:429 JLINK_IsHalted()  returns FALSE (0001ms, 0707ms total)
T2054 001:432 JLINK_IsHalted()  returns FALSE (0000ms, 0706ms total)
T2054 001:450 JLINK_IsHalted() -- CPU_ReadMem(2 bytes @ 0x20000000)  returns TRUE (0002ms, 0708ms total)
T2054 001:452 JLINK_ReadReg(R15 (PC))  returns 0x20000000 (0000ms, 0706ms total)
T2054 001:452 JLINK_ClrBPEx(BPHandle = 0x0000000D)  returns 0x00 (0000ms, 0706ms total)
T2054 001:452 JLINK_ReadReg(R0)  returns 0x00000000 (0000ms, 0706ms total)
T2054 001:453 JLINK_WriteMem(0x20000164, 0x0400 Bytes, ...) - Data: 0F 31 02 20 01 F0 90 F8 45 E0 23 48 00 68 41 1F ... -- CPU_WriteMem(1024 bytes @ 0x20000164)  returns 0x400 (0005ms, 0711ms total)
T2054 001:458 JLINK_WriteReg(R0, 0x08002400)  returns 0x00 (0000ms, 0711ms total)
T2054 001:458 JLINK_WriteReg(R1, 0x00000400)  returns 0x00 (0000ms, 0711ms total)
T2054 001:458 JLINK_WriteReg(R2, 0x20000164)  returns 0x00 (0000ms, 0711ms total)
T2054 001:458 JLINK_WriteReg(R3, 0x00000000)  returns 0x00 (0000ms, 0711ms total)
T2054 001:458 JLINK_WriteReg(R4, 0x00000000)  returns 0x00 (0000ms, 0711ms total)
T2054 001:458 JLINK_WriteReg(R5, 0x00000000)  returns 0x00 (0000ms, 0711ms total)
T2054 001:458 JLINK_WriteReg(R6, 0x00000000)  returns 0x00 (0000ms, 0711ms total)
T2054 001:458 JLINK_WriteReg(R7, 0x00000000)  returns 0x00 (0000ms, 0711ms total)
T2054 001:458 JLINK_WriteReg(R8, 0x00000000)  returns 0x00 (0000ms, 0711ms total)
T2054 001:458 JLINK_WriteReg(R9, 0x20000160)  returns 0x00 (0000ms, 0711ms total)
T2054 001:458 JLINK_WriteReg(R10, 0x00000000)  returns 0x00 (0000ms, 0711ms total)
T2054 001:458 JLINK_WriteReg(R11, 0x00000000)  returns 0x00 (0000ms, 0711ms total)
T2054 001:458 JLINK_WriteReg(R12, 0x00000000)  returns 0x00 (0000ms, 0711ms total)
T2054 001:458 JLINK_WriteReg(R13 (SP), 0x20001000)  returns 0x00 (0000ms, 0711ms total)
T2054 001:458 JLINK_WriteReg(R14, 0x20000001)  returns 0x00 (0000ms, 0711ms total)
T2054 001:458 JLINK_WriteReg(R15 (PC), 0x200000F4)  returns 0x00 (0000ms, 0711ms total)
T2054 001:458 JLINK_WriteReg(XPSR, 0x01000000)  returns 0x00 (0000ms, 0711ms total)
T2054 001:458 JLINK_WriteReg(MSP, 0x20001000)  returns 0x00 (0000ms, 0711ms total)
T2054 001:458 JLINK_WriteReg(PSP, 0x20001000)  returns 0x00 (0000ms, 0711ms total)
T2054 001:458 JLINK_WriteReg(CFBP, 0x00000000)  returns 0x00 (0000ms, 0711ms total)
T2054 001:458 JLINK_SetBPEx(Addr = 0x20000000, Type = 0xFFFFFFF2)  returns 0x0000000E (0000ms, 0711ms total)
T2054 001:458 JLINK_Go() (0002ms, 0713ms total)
T2054 001:460 JLINK_IsHalted()  returns FALSE (0000ms, 0713ms total)
T2054 001:462 JLINK_IsHalted()  returns FALSE (0000ms, 0713ms total)
T2054 001:464 JLINK_IsHalted()  returns FALSE (0001ms, 0714ms total)
T2054 001:466 JLINK_IsHalted()  returns FALSE (0001ms, 0714ms total)
T2054 001:469 JLINK_IsHalted()  returns FALSE (0000ms, 0713ms total)
T2054 001:471 JLINK_IsHalted()  returns FALSE (0000ms, 0713ms total)
T2054 001:473 JLINK_IsHalted()  returns FALSE (0000ms, 0713ms total)
T2054 001:475 JLINK_IsHalted()  returns FALSE (0000ms, 0713ms total)
T2054 001:477 JLINK_IsHalted()  returns FALSE (0000ms, 0713ms total)
T2054 001:479 JLINK_IsHalted()  returns FALSE (0000ms, 0713ms total)
T2054 001:481 JLINK_IsHalted()  returns FALSE (0000ms, 0713ms total)
T2054 001:483 JLINK_IsHalted()  returns FALSE (0000ms, 0713ms total)
T2054 001:485 JLINK_IsHalted()  returns FALSE (0000ms, 0713ms total)
T2054 001:487 JLINK_IsHalted()  returns FALSE (0000ms, 0713ms total)
T2054 001:489 JLINK_IsHalted()  returns FALSE (0000ms, 0713ms total)
T2054 001:491 JLINK_IsHalted() -- CPU_ReadMem(2 bytes @ 0x20000000)  returns TRUE (0002ms, 0715ms total)
T2054 001:493 JLINK_ReadReg(R15 (PC))  returns 0x20000000 (0001ms, 0714ms total)
T2054 001:494 JLINK_ClrBPEx(BPHandle = 0x0000000E)  returns 0x00 (0000ms, 0714ms total)
T2054 001:494 JLINK_ReadReg(R0)  returns 0x00000000 (0000ms, 0714ms total)
T2054 001:495 JLINK_WriteMem(0x20000164, 0x0400 Bytes, ...) - Data: 01 20 3C 49 08 70 06 20 38 49 08 70 00 20 3A 49 ... -- CPU_WriteMem(1024 bytes @ 0x20000164)  returns 0x400 (0004ms, 0718ms total)
T2054 001:499 JLINK_WriteReg(R0, 0x08002800)  returns 0x00 (0000ms, 0718ms total)
T2054 001:499 JLINK_WriteReg(R1, 0x00000400)  returns 0x00 (0000ms, 0718ms total)
T2054 001:499 JLINK_WriteReg(R2, 0x20000164)  returns 0x00 (0000ms, 0718ms total)
T2054 001:499 JLINK_WriteReg(R3, 0x00000000)  returns 0x00 (0000ms, 0718ms total)
T2054 001:499 JLINK_WriteReg(R4, 0x00000000)  returns 0x00 (0000ms, 0718ms total)
T2054 001:499 JLINK_WriteReg(R5, 0x00000000)  returns 0x00 (0000ms, 0718ms total)
T2054 001:499 JLINK_WriteReg(R6, 0x00000000)  returns 0x00 (0000ms, 0718ms total)
T2054 001:499 JLINK_WriteReg(R7, 0x00000000)  returns 0x00 (0000ms, 0718ms total)
T2054 001:499 JLINK_WriteReg(R8, 0x00000000)  returns 0x00 (0000ms, 0718ms total)
